
**** 02/16/24 20:19:23 ***** PSpice 16.6.0 (October 2012) ***** ID# 0 ********

 ** Profile: "SCHEMATIC1-rc"  [ E:\CANDENCE\resistors\resistors-PSpiceFiles\SCHEMATIC1\rc.sim ] 


 ****     CIRCUIT DESCRIPTION


******************************************************************************




** Creating circuit file "rc.cir" 
** WARNING: THIS AUTOMATICALLY GENERATED FILE MAY BE OVERWRITTEN BY SUBSEQUENT SIMULATIONS

*Libraries: 
* Profile Libraries :
* Local Libraries :
* From [PSPICE NETLIST] section of C:\Users\TSAO\AppData\Roaming\SPB_Data\cdssetup\OrCAD_PSpice/16.6.0/PSpice.ini file:
.lib "nom.lib" 

*Analysis directives: 
.OPTIONS ADVCONV
.PROBE64 V(alias(*)) I(alias(*)) W(alias(*)) D(alias(*)) NOISE(alias(*)) 
.INC "..\SCHEMATIC1.net" 



**** INCLUDING SCHEMATIC1.net ****
* source RESISTORS
R_R1         IN OUT  10R TC=0,0 
R_R2         0 OUT  10R TC=0,0 
V_V1         IN 0 10V
C_C1         0 OUT  1n  TC=0,0 

**** RESUMING rc.cir ****
.END

**** 02/16/24 20:19:23 ***** PSpice 16.6.0 (October 2012) ***** ID# 0 ********

 ** Profile: "SCHEMATIC1-rc"  [ E:\CANDENCE\resistors\resistors-PSpiceFiles\SCHEMATIC1\rc.sim ] 


 ****     SMALL SIGNAL BIAS SOLUTION       TEMPERATURE =   27.000 DEG C


******************************************************************************



 NODE   VOLTAGE     NODE   VOLTAGE     NODE   VOLTAGE     NODE   VOLTAGE


(   IN)   10.0000  (  OUT)    5.0000  




    VOLTAGE SOURCE CURRENTS
    NAME         CURRENT

    V_V1        -5.000E-01

    TOTAL POWER DISSIPATION   5.00E+00  WATTS



          JOB CONCLUDED

**** 02/16/24 20:19:23 ***** PSpice 16.6.0 (October 2012) ***** ID# 0 ********

 ** Profile: "SCHEMATIC1-rc"  [ E:\CANDENCE\resistors\resistors-PSpiceFiles\SCHEMATIC1\rc.sim ] 


 ****     JOB STATISTICS SUMMARY


******************************************************************************



  Total job time (using Solver 1)   =        0.00
